time	V(n001)	V(n004)	V(n008)
0.000000000000000e+000	0.000000e+000	0.000000e+000	0.000000e+000
9.999999439624929e-011	2.500000e-005	1.254422e-009	5.000000e-005
1.205386054531397e-010	3.013465e-005	1.539389e-009	6.026930e-005
1.616158275669206e-010	4.040396e-005	2.195413e-009	8.080791e-005
2.437702717944823e-010	6.094257e-005	3.637959e-009	1.218851e-004
4.080791602496056e-010	1.020198e-004	6.662763e-009	2.040396e-004
2.147032013157434e-007	5.367580e-002	3.916756e-006	1.073516e-001
4.289983234712373e-007	1.072496e-001	7.729289e-006	2.144992e-001
6.432934456267311e-007	1.608234e-001	1.144426e-005	3.216467e-001
8.575885677822250e-007	2.143971e-001	1.506168e-005	4.287943e-001
1.071883689937719e-006	2.679709e-001	1.858153e-005	5.359419e-001
1.286178812093213e-006	3.215447e-001	2.200383e-005	6.430894e-001
1.500473934248706e-006	3.751185e-001	2.532856e-005	7.502370e-001
3.000722925200316e-006	7.501807e-001	4.766872e-005	1.500361e+000
3.772371933611633e-006	9.430930e-001	5.767356e-005	1.886186e+000
4.442799977934449e-006	1.110700e+000	6.376250e-005	2.221400e+000
5.257845859106136e-006	1.314461e+000	6.680119e-005	2.628923e+000
6.351429649213665e-006	1.587857e+000	6.593549e-005	3.175715e+000
6.805287425761131e-006	1.701322e+000	6.420521e-005	3.402644e+000
7.087366999842778e-006	1.771842e+000	6.263965e-005	3.543684e+000
7.249195348282021e-006	1.812299e+000	6.191448e-005	3.624598e+000
7.343191582603528e-006	1.835798e+000	6.280311e-005	3.671596e+000
7.406244381580671e-006	1.851561e+000	6.666957e-005	3.703122e+000
7.464302718911290e-006	1.866076e+000	7.722490e-005	3.732151e+000
7.541864173460182e-006	1.885466e+000	1.063147e-004	3.770932e+000
7.617699859982675e-006	1.904425e+000	1.584021e-004	3.808850e+000
7.718030234820598e-006	1.929508e+000	2.744874e-004	3.859015e+000
7.829351103034700e-006	1.957338e+000	4.825653e-004	3.914675e+000
7.974570703849171e-006	1.993643e+000	9.119317e-004	3.987285e+000
8.155559477654456e-006	2.038890e+000	1.749060e-003	4.077780e+000
8.394869240244080e-006	2.098717e+000	3.471531e-003	4.197434e+000
8.706319156832863e-006	2.176580e+000	6.953777e-003	4.353159e+000
9.137415746899378e-006	2.284354e+000	1.375535e-002	4.568708e+000
9.378585257674437e-006	2.344646e+000	1.864637e-002	4.689292e+000
9.517660978449881e-006	2.379415e+000	2.205507e-002	4.758831e+000
9.721848558449110e-006	2.430462e+000	2.780710e-002	4.860924e+000
9.999999999999999e-006	2.500000e+000	3.637603e-002	5.000000e+000
1.002781514415509e-005	2.506954e+000	3.734043e-002	5.000000e+000
1.008344543246527e-005	2.520861e+000	3.931019e-002	5.000000e+000
1.019470600908562e-005	2.548676e+000	4.344912e-002	5.000000e+000
1.041722716232633e-005	2.604307e+000	5.253112e-002	5.000000e+000
1.086226946880775e-005	2.715567e+000	7.377679e-002	5.000000e+000
1.175235408177060e-005	2.938088e+000	1.264553e-001	5.000000e+000
1.323269113339095e-005	3.308173e+000	2.354556e-001	5.000000e+000
1.484642426944691e-005	3.711606e+000	3.792650e-001	5.000000e+000
1.677474628714215e-005	4.193686e+000	5.789531e-001	5.000000e+000
1.895498384425280e-005	4.738746e+000	8.279742e-001	5.000000e+000
2.000000000000000e-005	5.000000e+000	9.545211e-001	5.000000e+000
2.019493177931918e-005	5.000000e+000	9.753758e-001	5.000000e+000
2.058479533795753e-005	5.000000e+000	1.010601e+000	5.000000e+000
2.136452245523423e-005	5.000000e+000	1.058435e+000	5.000000e+000
2.292397668978763e-005	5.000000e+000	1.110779e+000	5.000000e+000
2.436761538813250e-005	5.000000e+000	1.131642e+000	5.000000e+000
2.655218528606456e-005	5.000000e+000	1.140802e+000	5.000000e+000
2.902891429318765e-005	5.000000e+000	1.143486e+000	5.000000e+000
3.386685413879472e-005	5.000000e+000	1.144084e+000	5.000000e+000
4.028290139192677e-005	5.000000e+000	1.144131e+000	5.000000e+000
5.028290139192677e-005	5.000000e+000	1.144124e+000	5.000000e+000
6.028290139192677e-005	5.000000e+000	1.144125e+000	5.000000e+000
7.028290139192677e-005	5.000000e+000	1.144125e+000	5.000000e+000
8.028290139192677e-005	5.000000e+000	1.144125e+000	5.000000e+000
9.028290139192677e-005	5.000000e+000	1.144125e+000	5.000000e+000
1.002829013919268e-004	5.000000e+000	1.144125e+000	5.000000e+000
1.102829013919268e-004	5.000000e+000	1.144125e+000	5.000000e+000
1.202829013919268e-004	5.000000e+000	1.144125e+000	5.000000e+000
1.302829013919268e-004	5.000000e+000	1.144125e+000	5.000000e+000
1.402829013919268e-004	5.000000e+000	1.144125e+000	5.000000e+000
1.502829013919268e-004	5.000000e+000	1.144125e+000	5.000000e+000
1.602829013919268e-004	5.000000e+000	1.144125e+000	5.000000e+000
1.702829013919268e-004	5.000000e+000	1.144125e+000	5.000000e+000
1.802829013919268e-004	5.000000e+000	1.144125e+000	5.000000e+000
1.902829013919268e-004	5.000000e+000	1.144125e+000	5.000000e+000
2.002829013919268e-004	5.000000e+000	1.144125e+000	5.000000e+000
2.102829013919268e-004	5.000000e+000	1.144125e+000	5.000000e+000
2.202829013919268e-004	5.000000e+000	1.144125e+000	5.000000e+000
2.302829013919268e-004	5.000000e+000	1.144125e+000	5.000000e+000
2.402829013919268e-004	5.000000e+000	1.144125e+000	5.000000e+000
2.502829013919268e-004	5.000000e+000	1.144125e+000	5.000000e+000
2.602829013919267e-004	5.000000e+000	1.144125e+000	5.000000e+000
2.702829013919268e-004	5.000000e+000	1.144125e+000	5.000000e+000
2.802829013919268e-004	5.000000e+000	1.144125e+000	5.000000e+000
2.902829013919268e-004	5.000000e+000	1.144125e+000	5.000000e+000
3.002829013919268e-004	5.000000e+000	1.144125e+000	5.000000e+000
3.102829013919269e-004	5.000000e+000	1.144125e+000	5.000000e+000
3.202829013919269e-004	5.000000e+000	1.144125e+000	5.000000e+000
3.302829013919269e-004	5.000000e+000	1.144125e+000	5.000000e+000
3.402829013919269e-004	5.000000e+000	1.144125e+000	5.000000e+000
3.502829013919270e-004	5.000000e+000	1.144125e+000	5.000000e+000
3.602829013919270e-004	5.000000e+000	1.144125e+000	5.000000e+000
3.702829013919270e-004	5.000000e+000	1.144125e+000	5.000000e+000
3.802829013919270e-004	5.000000e+000	1.144125e+000	5.000000e+000
3.902829013919271e-004	5.000000e+000	1.144125e+000	5.000000e+000
4.002829013919271e-004	5.000000e+000	1.144125e+000	5.000000e+000
4.102829013919271e-004	5.000000e+000	1.144125e+000	5.000000e+000
4.202829013919272e-004	5.000000e+000	1.144125e+000	5.000000e+000
4.302829013919272e-004	5.000000e+000	1.144125e+000	5.000000e+000
4.402829013919272e-004	5.000000e+000	1.144125e+000	5.000000e+000
4.502829013919272e-004	5.000000e+000	1.144125e+000	5.000000e+000
4.602829013919273e-004	5.000000e+000	1.144125e+000	5.000000e+000
4.702829013919273e-004	5.000000e+000	1.144125e+000	5.000000e+000
4.802829013919273e-004	5.000000e+000	1.144125e+000	5.000000e+000
4.902829013919273e-004	5.000000e+000	1.144125e+000	5.000000e+000
5.002829013919274e-004	5.000000e+000	1.144125e+000	5.000000e+000
5.100000000000000e-004	5.000000e+000	1.144125e+000	5.000000e+000
5.101572917574513e-004	5.000000e+000	1.145285e+000	4.921354e+000
5.104718752723539e-004	5.000000e+000	1.150037e+000	4.764062e+000
5.111010423021590e-004	5.000000e+000	1.170710e+000	4.449479e+000
5.123593763617692e-004	5.000000e+000	1.252015e+000	3.820312e+000
5.138554243396645e-004	5.000000e+000	1.421427e+000	3.072288e+000
5.152501376034892e-004	5.000000e+000	1.647601e+000	2.374931e+000
5.156537856200333e-004	5.000000e+000	1.725400e+000	2.173107e+000
5.158375851237467e-004	5.000000e+000	1.762519e+000	2.081208e+000
5.159064256486219e-004	5.000000e+000	1.776261e+000	2.046787e+000
5.159559493516645e-004	5.000000e+000	1.786050e+000	2.022025e+000
5.160082555025208e-004	5.000000e+000	1.796304e+000	1.995872e+000
5.160777995835721e-004	5.000000e+000	1.809802e+000	1.961100e+000
5.161616933233174e-004	5.000000e+000	1.825858e+000	1.919153e+000
5.162730964211653e-004	5.000000e+000	1.846748e+000	1.863452e+000
5.164110717436701e-004	5.000000e+000	1.871853e+000	1.794464e+000
5.166064803323902e-004	5.000000e+000	1.905950e+000	1.696760e+000
5.168574431407617e-004	5.000000e+000	1.947376e+000	1.571278e+000
5.171982903101318e-004	5.000000e+000	1.999674e+000	1.400855e+000
5.176646932656120e-004	5.000000e+000	2.064726e+000	1.167653e+000
5.183146079260779e-004	5.000000e+000	2.145212e+000	8.426960e-001
5.190813035970287e-004	5.000000e+000	2.227588e+000	4.593482e-001
5.200000000000001e-004	5.000000e+000	2.315191e+000	0.000000e+000
5.200596102876891e-004	5.000000e+000	2.320111e+000	0.000000e+000
5.201788308630672e-004	5.000000e+000	2.329797e+000	0.000000e+000
5.204172720138234e-004	5.000000e+000	2.348452e+000	0.000000e+000
5.208941543153356e-004	5.000000e+000	2.383111e+000	0.000000e+000
5.218479189183601e-004	5.000000e+000	2.443660e+000	0.000000e+000
5.237554481244091e-004	5.000000e+000	2.542109e+000	0.000000e+000
5.263435780666206e-004	5.000000e+000	2.644402e+000	0.000000e+000
5.291343838330153e-004	5.000000e+000	2.725974e+000	0.000000e+000
5.318610762490956e-004	5.000000e+000	2.785505e+000	0.000000e+000
5.344548864617337e-004	5.000000e+000	2.829325e+000	0.000000e+000
5.369566267436690e-004	5.000000e+000	2.863004e+000	0.000000e+000
5.398566836619201e-004	5.000000e+000	2.894266e+000	0.000000e+000
5.439416074912086e-004	5.000000e+000	2.929449e+000	0.000000e+000
5.480329397258659e-004	5.000000e+000	2.957887e+000	0.000000e+000
5.508476504246608e-004	5.000000e+000	2.973926e+000	0.000000e+000
5.536985375468208e-004	5.000000e+000	2.987657e+000	0.000000e+000
5.568366546799110e-004	5.000000e+000	3.000790e+000	0.000000e+000
5.600250945239143e-004	5.000000e+000	3.012398e+000	0.000000e+000
5.636399877333176e-004	5.000000e+000	3.023821e+000	0.000000e+000
5.676012120356838e-004	5.000000e+000	3.034625e+000	0.000000e+000
5.725301440228851e-004	5.000000e+000	3.046078e+000	0.000000e+000
5.784991508692463e-004	5.000000e+000	3.057662e+000	0.000000e+000
5.865457163370285e-004	5.000000e+000	3.070364e+000	0.000000e+000
5.965457163370285e-004	5.000000e+000	3.083007e+000	0.000000e+000
6.065457163370285e-004	5.000000e+000	3.093076e+000	0.000000e+000
6.165457163370286e-004	5.000000e+000	3.101171e+000	0.000000e+000
6.265457163370286e-004	5.000000e+000	3.107823e+000	0.000000e+000
6.365457163370286e-004	5.000000e+000	3.113389e+000	0.000000e+000
6.465457163370287e-004	5.000000e+000	3.118115e+000	0.000000e+000
6.565457163370287e-004	5.000000e+000	3.122179e+000	0.000000e+000
6.665457163370287e-004	5.000000e+000	3.125709e+000	0.000000e+000
6.765457163370287e-004	5.000000e+000	3.128805e+000	0.000000e+000
6.865457163370288e-004	5.000000e+000	3.131542e+000	0.000000e+000
6.965457163370288e-004	5.000000e+000	3.133980e+000	0.000000e+000
7.065457163370288e-004	5.000000e+000	3.136164e+000	0.000000e+000
7.165457163370288e-004	5.000000e+000	3.138133e+000	0.000000e+000
7.265457163370289e-004	5.000000e+000	3.139916e+000	0.000000e+000
7.365457163370289e-004	5.000000e+000	3.141539e+000	0.000000e+000
7.465457163370289e-004	5.000000e+000	3.143023e+000	0.000000e+000
7.565457163370289e-004	5.000000e+000	3.144384e+000	0.000000e+000
7.665457163370290e-004	5.000000e+000	3.145638e+000	0.000000e+000
7.765457163370290e-004	5.000000e+000	3.146796e+000	0.000000e+000
7.865457163370290e-004	5.000000e+000	3.147869e+000	0.000000e+000
7.965457163370290e-004	5.000000e+000	3.148866e+000	0.000000e+000
8.065457163370291e-004	5.000000e+000	3.149795e+000	0.000000e+000
8.165457163370291e-004	5.000000e+000	3.150662e+000	0.000000e+000
8.265457163370291e-004	5.000000e+000	3.151474e+000	0.000000e+000
8.365457163370291e-004	5.000000e+000	3.152236e+000	0.000000e+000
8.465457163370292e-004	5.000000e+000	3.152952e+000	0.000000e+000
8.565457163370292e-004	5.000000e+000	3.153626e+000	0.000000e+000
8.665457163370292e-004	5.000000e+000	3.154262e+000	0.000000e+000
8.765457163370293e-004	5.000000e+000	3.154862e+000	0.000000e+000
8.865457163370293e-004	5.000000e+000	3.155431e+000	0.000000e+000
8.965457163370293e-004	5.000000e+000	3.155969e+000	0.000000e+000
9.065457163370293e-004	5.000000e+000	3.156481e+000	0.000000e+000
9.165457163370294e-004	5.000000e+000	3.156966e+000	0.000000e+000
9.265457163370294e-004	5.000000e+000	3.157429e+000	0.000000e+000
9.365457163370294e-004	5.000000e+000	3.157869e+000	0.000000e+000
9.465457163370294e-004	5.000000e+000	3.158289e+000	0.000000e+000
9.565457163370295e-004	5.000000e+000	3.158690e+000	0.000000e+000
9.665457163370295e-004	5.000000e+000	3.159073e+000	0.000000e+000
9.765457163370295e-004	5.000000e+000	3.159440e+000	0.000000e+000
9.865457163370295e-004	5.000000e+000	3.159793e+000	0.000000e+000
9.900000000000000e-004	5.000000e+000	3.159912e+000	0.000000e+000
9.952685386075272e-004	5.000000e+000	3.160089e+000	0.000000e+000
9.970971920887093e-004	5.000000e+000	3.160149e+000	0.000000e+000
1.000000000000000e-003	5.000000e+000	3.160244e+000	0.000000e+000
1.000017121158233e-003	5.000000e+000	3.160244e+000	8.560579e-003
1.000051363474700e-003	5.000000e+000	3.160245e+000	2.568174e-002
1.000110945680726e-003	5.000000e+000	3.160247e+000	5.547284e-002
1.000172434012156e-003	5.000000e+000	3.160249e+000	8.621701e-002
1.000295410675017e-003	5.000000e+000	3.160253e+000	1.477053e-001
1.000541364000740e-003	5.000000e+000	3.160261e+000	2.706820e-001
1.000827925687467e-003	5.000000e+000	3.160270e+000	4.139628e-001
1.001021749515515e-003	5.000000e+000	3.160277e+000	5.108747e-001
1.001144833002282e-003	5.000000e+000	3.160281e+000	5.724165e-001
1.001267685544186e-003	5.000000e+000	3.160285e+000	6.338428e-001
1.001288929893100e-003	5.000000e+000	3.160285e+000	6.444650e-001
1.001313337735997e-003	5.000000e+000	3.160286e+000	6.566688e-001
1.001468817655494e-003	5.000000e+000	3.160291e+000	7.344088e-001
1.001624297574992e-003	5.000000e+000	3.160296e+000	8.121488e-001
1.001779777494490e-003	5.000000e+000	3.160301e+000	8.898888e-001
1.001935257413987e-003	5.000000e+000	3.160306e+000	9.676287e-001
1.002090737333485e-003	5.000000e+000	3.160311e+000	1.045369e+000
1.002246217252983e-003	5.000000e+000	3.160316e+000	1.123109e+000
1.002401697172480e-003	5.000000e+000	3.160321e+000	1.200849e+000
1.002846869514014e-003	5.000000e+000	3.160334e+000	1.423435e+000
1.003676893709592e-003	5.000000e+000	3.154380e+000	1.838447e+000
1.004929935216152e-003	5.000000e+000	3.104266e+000	2.464967e+000
1.006183762351392e-003	5.000000e+000	2.933994e+000	3.091881e+000
1.007946472435660e-003	5.000000e+000	2.497874e+000	3.973236e+000
1.008153302549521e-003	5.000000e+000	2.425513e+000	4.076651e+000
1.008566962777242e-003	5.000000e+000	2.254154e+000	4.283482e+000
1.009172679544557e-003	5.000000e+000	2.009919e+000	4.586340e+000
1.010000000000000e-003	5.000000e+000	1.696937e+000	5.000000e+000
1.010082732045544e-003	5.000000e+000	1.671336e+000	5.000000e+000
1.010248196136633e-003	5.000000e+000	1.623349e+000	5.000000e+000
1.010579124318810e-003	5.000000e+000	1.538056e+000	5.000000e+000
1.010902295685923e-003	5.000000e+000	1.469647e+000	5.000000e+000
1.011548638420150e-003	5.000000e+000	1.372105e+000	5.000000e+000
1.012841323888603e-003	5.000000e+000	1.251110e+000	5.000000e+000
1.014111594462631e-003	5.000000e+000	1.189014e+000	5.000000e+000
1.015319429508688e-003	5.000000e+000	1.163332e+000	5.000000e+000
1.016359595437125e-003	5.000000e+000	1.153377e+000	5.000000e+000
1.017375030680134e-003	5.000000e+000	1.148818e+000	5.000000e+000
1.018488788219027e-003	5.000000e+000	1.146352e+000	5.000000e+000
1.019523992724865e-003	5.000000e+000	1.145220e+000	5.000000e+000
1.020573976193287e-003	5.000000e+000	1.144663e+000	5.000000e+000
1.021568512498044e-003	5.000000e+000	1.144399e+000	5.000000e+000
1.022592206948545e-003	5.000000e+000	1.144263e+000	5.000000e+000
1.023587707936561e-003	5.000000e+000	1.144195e+000	5.000000e+000
1.024604367308687e-003	5.000000e+000	1.144160e+000	5.000000e+000
1.025599696937528e-003	5.000000e+000	1.144143e+000	5.000000e+000
1.026609916273950e-003	5.000000e+000	1.144134e+000	5.000000e+000
1.027605734812691e-003	5.000000e+000	1.144130e+000	5.000000e+000
1.028612662767172e-003	5.000000e+000	1.144127e+000	5.000000e+000
1.029609559803007e-003	5.000000e+000	1.144126e+000	5.000000e+000
1.030614419003629e-003	5.000000e+000	1.144125e+000	5.000000e+000
1.031612204073235e-003	5.000000e+000	1.144125e+000	5.000000e+000
1.032615714522475e-003	5.000000e+000	1.144125e+000	5.000000e+000
1.033614238855643e-003	5.000000e+000	1.144125e+000	5.000000e+000
1.034616863365720e-003	5.000000e+000	1.144125e+000	5.000000e+000
1.035615957607935e-003	5.000000e+000	1.144125e+000	5.000000e+000
1.036617978554957e-003	5.000000e+000	1.144125e+000	5.000000e+000
1.037617498878014e-003	5.000000e+000	1.144125e+000	5.000000e+000
1.038619102659454e-003	5.000000e+000	1.144125e+000	5.000000e+000
1.039618938310755e-003	5.000000e+000	1.144125e+000	5.000000e+000
1.040620248000723e-003	5.000000e+000	1.144125e+000	5.000000e+000
1.041620317850399e-003	5.000000e+000	1.144125e+000	5.000000e+000
1.042621413433982e-003	5.000000e+000	1.144125e+000	5.000000e+000
1.043621664000606e-003	5.000000e+000	1.144125e+000	5.000000e+000
1.044622591874872e-003	5.000000e+000	1.144125e+000	5.000000e+000
1.045622998136555e-003	5.000000e+000	1.144125e+000	5.000000e+000
1.046623771083821e-003	5.000000e+000	1.144125e+000	5.000000e+000
1.047624345364578e-003	5.000000e+000	1.144125e+000	5.000000e+000
1.048624929833688e-003	5.000000e+000	1.144125e+000	5.000000e+000
1.049625747179167e-003	5.000000e+000	1.144125e+000	5.000000e+000
1.050626027373379e-003	5.000000e+000	1.144125e+000	5.000000e+000
1.051627285567721e-003	5.000000e+000	1.144125e+000	5.000000e+000
1.052626980179687e-003	5.000000e+000	1.144125e+000	5.000000e+000
1.053629134217040e-003	5.000000e+000	1.144125e+000	5.000000e+000
1.054642622398763e-003	5.000000e+000	1.144125e+000	5.000000e+000
1.055746060676332e-003	5.000000e+000	1.144125e+000	5.000000e+000
1.057082790481289e-003	5.000000e+000	1.144125e+000	5.000000e+000
1.058638260740393e-003	5.000000e+000	1.144125e+000	5.000000e+000
1.063134460587324e-003	5.000000e+000	1.144125e+000	5.000000e+000
1.066678944916591e-003	5.000000e+000	1.144125e+000	5.000000e+000
1.072068804580113e-003	5.000000e+000	1.144125e+000	5.000000e+000
1.081724561304052e-003	5.000000e+000	1.144125e+000	5.000000e+000
1.091724561304052e-003	5.000000e+000	1.144125e+000	5.000000e+000
1.101724561304052e-003	5.000000e+000	1.144125e+000	5.000000e+000
1.111724561304052e-003	5.000000e+000	1.144125e+000	5.000000e+000
1.121724561304052e-003	5.000000e+000	1.144125e+000	5.000000e+000
1.131724561304052e-003	5.000000e+000	1.144125e+000	5.000000e+000
1.141724561304052e-003	5.000000e+000	1.144125e+000	5.000000e+000
1.151724561304052e-003	5.000000e+000	1.144125e+000	5.000000e+000
1.161724561304052e-003	5.000000e+000	1.144125e+000	5.000000e+000
1.171724561304052e-003	5.000000e+000	1.144125e+000	5.000000e+000
1.181724561304052e-003	5.000000e+000	1.144125e+000	5.000000e+000
1.191724561304052e-003	5.000000e+000	1.144125e+000	5.000000e+000
1.201724561304052e-003	5.000000e+000	1.144125e+000	5.000000e+000
1.211724561304052e-003	5.000000e+000	1.144125e+000	5.000000e+000
1.221724561304052e-003	5.000000e+000	1.144125e+000	5.000000e+000
1.231724561304052e-003	5.000000e+000	1.144125e+000	5.000000e+000
1.241724561304052e-003	5.000000e+000	1.144125e+000	5.000000e+000
1.251724561304052e-003	5.000000e+000	1.144125e+000	5.000000e+000
1.261724561304052e-003	5.000000e+000	1.144125e+000	5.000000e+000
1.271724561304052e-003	5.000000e+000	1.144125e+000	5.000000e+000
1.281724561304052e-003	5.000000e+000	1.144125e+000	5.000000e+000
1.291724561304053e-003	5.000000e+000	1.144125e+000	5.000000e+000
1.301724561304053e-003	5.000000e+000	1.144125e+000	5.000000e+000
1.311724561304053e-003	5.000000e+000	1.144125e+000	5.000000e+000
1.321724561304053e-003	5.000000e+000	1.144125e+000	5.000000e+000
1.331724561304053e-003	5.000000e+000	1.144125e+000	5.000000e+000
1.341724561304053e-003	5.000000e+000	1.144125e+000	5.000000e+000
1.351724561304053e-003	5.000000e+000	1.144125e+000	5.000000e+000
1.361724561304053e-003	5.000000e+000	1.144125e+000	5.000000e+000
1.371724561304053e-003	5.000000e+000	1.144125e+000	5.000000e+000
1.381724561304053e-003	5.000000e+000	1.144125e+000	5.000000e+000
1.391724561304053e-003	5.000000e+000	1.144125e+000	5.000000e+000
1.401724561304053e-003	5.000000e+000	1.144125e+000	5.000000e+000
