time	V(n001)	V(n006)	V(n011)
0.000000000000000e+000	0.000000e+000	0.000000e+000	0.000000e+000
9.999999439624929e-011	2.500000e-005	5.000000e-005	3.193200e-013
1.205386054531397e-010	3.013465e-005	6.026930e-005	3.853765e-013
1.616158275669206e-010	4.040396e-005	8.080791e-005	5.189720e-013
2.437702717944823e-010	6.094257e-005	1.218851e-004	7.883991e-013
4.080791602496056e-010	1.020198e-004	2.040396e-004	1.329648e-012
2.147032013157434e-007	5.367580e-002	1.073516e-001	7.080259e-010
4.289983234712373e-007	1.072496e-001	2.144992e-001	1.414783e-009
6.432934456267311e-007	1.608234e-001	3.216467e-001	2.121602e-009
8.575885677822250e-007	2.143971e-001	4.287943e-001	2.828481e-009
1.071883689937719e-006	2.679709e-001	5.359419e-001	3.535422e-009
1.286178812093213e-006	3.215447e-001	6.430894e-001	4.242424e-009
1.500473934248706e-006	3.751185e-001	7.502370e-001	4.949487e-009
3.000722925200316e-006	7.501807e-001	1.500361e+000	9.879233e-009
3.772371933611633e-006	9.430930e-001	1.886186e+000	1.228433e-008
4.442799977934449e-006	1.110700e+000	2.221400e+000	1.398367e-008
5.257845859106136e-006	1.314461e+000	2.628923e+000	1.525511e-008
6.351429649213665e-006	1.587857e+000	3.175715e+000	1.598470e-008
6.805287425761131e-006	1.701322e+000	3.402644e+000	1.599224e-008
7.087366999842778e-006	1.771842e+000	3.543684e+000	1.588278e-008
7.249195348282021e-006	1.812299e+000	3.624598e+000	1.579578e-008
7.343191582603528e-006	1.835798e+000	3.671596e+000	1.573794e-008
7.406244381580671e-006	1.851561e+000	3.703122e+000	1.569637e-008
7.464302718911290e-006	1.866076e+000	3.732151e+000	1.565628e-008
7.541864173460182e-006	1.885466e+000	3.770932e+000	1.560056e-008
7.617699859982675e-006	1.904425e+000	3.808850e+000	1.554383e-008
7.718030234820598e-006	1.929508e+000	3.859015e+000	1.546553e-008
7.829351103034700e-006	1.957338e+000	3.914675e+000	1.537477e-008
7.974570703849171e-006	1.993643e+000	3.987285e+000	1.525073e-008
8.155559477654456e-006	2.038890e+000	4.077780e+000	1.508861e-008
8.394869240244080e-006	2.098717e+000	4.197434e+000	1.486392e-008
8.706319156832863e-006	2.176580e+000	4.353159e+000	1.455902e-008
9.137415746899378e-006	2.284354e+000	4.568708e+000	1.412490e-008
9.378585257674437e-006	2.344646e+000	4.689292e+000	1.387872e-008
9.517660978449881e-006	2.379415e+000	4.758831e+000	1.373635e-008
9.721848558449110e-006	2.430462e+000	4.860924e+000	1.352855e-008
9.999999999999999e-006	2.500000e+000	5.000000e+000	1.324742e-008
1.002781514415509e-005	2.506954e+000	5.000000e+000	1.310872e-008
1.008344543246527e-005	2.520861e+000	5.000000e+000	1.283565e-008
1.019470600908562e-005	2.548676e+000	5.000000e+000	1.231003e-008
1.041722716232633e-005	2.604307e+000	5.000000e+000	1.133658e-008
1.086226946880775e-005	2.715567e+000	5.000000e+000	9.658117e-009
1.175235408177060e-005	2.938088e+000	5.000000e+000	7.071069e-009
1.323269113339095e-005	3.308173e+000	5.000000e+000	4.146027e-009
1.484642426944691e-005	3.711606e+000	5.000000e+000	2.262662e-009
1.677474628714215e-005	4.193686e+000	5.000000e+000	1.114400e-009
1.895498384425280e-005	4.738746e+000	5.000000e+000	4.677912e-010
2.000000000000000e-005	5.000000e+000	5.000000e+000	2.999975e-010
2.019493177931918e-005	5.000000e+000	5.000000e+000	2.834313e-010
2.058479533795753e-005	5.000000e+000	5.000000e+000	2.535238e-010
2.136452245523423e-005	5.000000e+000	5.000000e+000	2.064780e-010
2.292397668978763e-005	5.000000e+000	5.000000e+000	1.412121e-010
2.436761538813250e-005	5.000000e+000	5.000000e+000	1.050809e-010
2.655218528606456e-005	5.000000e+000	5.000000e+000	7.808880e-011
2.902891429318765e-005	5.000000e+000	5.000000e+000	6.496099e-011
3.386685413879472e-005	5.000000e+000	5.000000e+000	5.760083e-011
4.028290139192677e-005	5.000000e+000	5.000000e+000	5.568743e-011
5.028290139192677e-005	5.000000e+000	5.000000e+000	5.561873e-011
6.028290139192677e-005	5.000000e+000	5.000000e+000	5.562272e-011
7.028290139192677e-005	5.000000e+000	5.000000e+000	5.562147e-011
8.028290139192677e-005	5.000000e+000	5.000000e+000	5.562186e-011
9.028290139192677e-005	5.000000e+000	5.000000e+000	5.562174e-011
1.002829013919268e-004	5.000000e+000	5.000000e+000	5.562178e-011
1.102829013919268e-004	5.000000e+000	5.000000e+000	5.562177e-011
1.202829013919268e-004	5.000000e+000	5.000000e+000	5.562177e-011
1.302829013919268e-004	5.000000e+000	5.000000e+000	5.562177e-011
1.402829013919268e-004	5.000000e+000	5.000000e+000	5.562177e-011
1.502829013919268e-004	5.000000e+000	5.000000e+000	5.562177e-011
1.602829013919268e-004	5.000000e+000	5.000000e+000	5.562177e-011
1.702829013919268e-004	5.000000e+000	5.000000e+000	5.562177e-011
1.802829013919268e-004	5.000000e+000	5.000000e+000	5.562177e-011
1.902829013919268e-004	5.000000e+000	5.000000e+000	5.562177e-011
2.002829013919268e-004	5.000000e+000	5.000000e+000	5.562177e-011
2.102829013919268e-004	5.000000e+000	5.000000e+000	5.562177e-011
2.202829013919268e-004	5.000000e+000	5.000000e+000	5.562177e-011
2.302829013919268e-004	5.000000e+000	5.000000e+000	5.562177e-011
2.402829013919268e-004	5.000000e+000	5.000000e+000	5.562177e-011
2.502829013919268e-004	5.000000e+000	5.000000e+000	5.562177e-011
2.602829013919267e-004	5.000000e+000	5.000000e+000	5.562177e-011
2.702829013919268e-004	5.000000e+000	5.000000e+000	5.562177e-011
2.802829013919268e-004	5.000000e+000	5.000000e+000	5.562177e-011
2.902829013919268e-004	5.000000e+000	5.000000e+000	5.562177e-011
3.002829013919268e-004	5.000000e+000	5.000000e+000	5.562177e-011
3.102829013919269e-004	5.000000e+000	5.000000e+000	5.562177e-011
3.202829013919269e-004	5.000000e+000	5.000000e+000	5.562177e-011
3.302829013919269e-004	5.000000e+000	5.000000e+000	5.562177e-011
3.402829013919269e-004	5.000000e+000	5.000000e+000	5.562177e-011
3.502829013919270e-004	5.000000e+000	5.000000e+000	5.562177e-011
3.602829013919270e-004	5.000000e+000	5.000000e+000	5.562177e-011
3.702829013919270e-004	5.000000e+000	5.000000e+000	5.562177e-011
3.802829013919270e-004	5.000000e+000	5.000000e+000	5.562177e-011
3.902829013919271e-004	5.000000e+000	5.000000e+000	5.562177e-011
4.002829013919271e-004	5.000000e+000	5.000000e+000	5.562177e-011
4.102829013919271e-004	5.000000e+000	5.000000e+000	5.562177e-011
4.202829013919272e-004	5.000000e+000	5.000000e+000	5.562177e-011
4.302829013919272e-004	5.000000e+000	5.000000e+000	5.562177e-011
4.402829013919272e-004	5.000000e+000	5.000000e+000	5.562177e-011
4.502829013919272e-004	5.000000e+000	5.000000e+000	5.562177e-011
4.602829013919273e-004	5.000000e+000	5.000000e+000	5.562177e-011
4.702829013919273e-004	5.000000e+000	5.000000e+000	5.562177e-011
4.802829013919273e-004	5.000000e+000	5.000000e+000	5.562177e-011
4.902829013919273e-004	5.000000e+000	5.000000e+000	5.562177e-011
5.002829013919274e-004	5.000000e+000	5.000000e+000	5.562177e-011
5.100000000000000e-004	5.000000e+000	5.000000e+000	5.562177e-011
5.101572917574513e-004	5.000000e+000	4.921354e+000	-5.347848e-010
5.104718752723539e-004	5.000000e+000	4.764062e+000	-1.622782e-009
5.111010423021590e-004	5.000000e+000	4.449479e+000	-3.446027e-009
5.123593763617692e-004	5.000000e+000	3.820312e+000	-6.332722e-009
5.138554243396645e-004	5.000000e+000	3.072288e+000	-9.221686e-009
5.152501376034892e-004	5.000000e+000	2.374931e+000	-1.186971e-008
5.156537856200333e-004	5.000000e+000	2.173107e+000	9.133657e-006
5.158375851237467e-004	5.000000e+000	2.081208e+000	3.779847e-005
5.159064256486219e-004	5.000000e+000	2.046787e+000	7.614517e-005
5.159559493516645e-004	5.000000e+000	2.022025e+000	1.359918e-004
5.160082555025208e-004	5.000000e+000	1.995872e+000	2.428938e-004
5.160777995835721e-004	5.000000e+000	1.961100e+000	4.640932e-004
5.161616933233174e-004	5.000000e+000	1.919153e+000	8.754077e-004
5.162730964211653e-004	5.000000e+000	1.863452e+000	1.712423e-003
5.164110717436701e-004	5.000000e+000	1.794464e+000	3.314680e-003
5.166064803323902e-004	5.000000e+000	1.696760e+000	6.822810e-003
5.168574431407617e-004	5.000000e+000	1.571278e+000	1.380588e-002
5.171982903101318e-004	5.000000e+000	1.400855e+000	2.856812e-002
5.176646932656120e-004	5.000000e+000	1.167653e+000	6.007320e-002
5.183146079260779e-004	5.000000e+000	8.426960e-001	1.270154e-001
5.190813035970287e-004	5.000000e+000	4.593482e-001	2.438865e-001
5.200000000000001e-004	5.000000e+000	0.000000e+000	4.238255e-001
5.200596102876891e-004	5.000000e+000	0.000000e+000	4.385378e-001
5.201788308630672e-004	5.000000e+000	0.000000e+000	4.679606e-001
5.204172720138234e-004	5.000000e+000	0.000000e+000	5.267978e-001
5.208941543153356e-004	5.000000e+000	0.000000e+000	6.444369e-001
5.218479189183601e-004	5.000000e+000	0.000000e+000	8.795745e-001
5.237554481244091e-004	5.000000e+000	0.000000e+000	1.349383e+000
5.263435780666206e-004	5.000000e+000	0.000000e+000	1.983037e+000
5.291343838330153e-004	5.000000e+000	0.000000e+000	2.643059e+000
5.318610762490956e-004	5.000000e+000	0.000000e+000	3.225305e+000
5.344548864617337e-004	5.000000e+000	0.000000e+000	3.685178e+000
5.369566267436690e-004	5.000000e+000	0.000000e+000	4.028365e+000
5.398566836619201e-004	5.000000e+000	0.000000e+000	4.315750e+000
5.439416074912086e-004	5.000000e+000	0.000000e+000	4.589207e+000
5.480329397258659e-004	5.000000e+000	0.000000e+000	4.766041e+000
5.508476504246608e-004	5.000000e+000	0.000000e+000	4.842231e+000
5.536985375468208e-004	5.000000e+000	0.000000e+000	4.891810e+000
5.568366546799110e-004	5.000000e+000	0.000000e+000	4.928623e+000
5.600250945239143e-004	5.000000e+000	0.000000e+000	4.953259e+000
5.636399877333176e-004	5.000000e+000	0.000000e+000	4.970970e+000
5.676012120356838e-004	5.000000e+000	0.000000e+000	4.982710e+000
5.725301440228851e-004	5.000000e+000	0.000000e+000	4.990838e+000
5.784991508692463e-004	5.000000e+000	0.000000e+000	4.995728e+000
5.865457163370285e-004	5.000000e+000	0.000000e+000	4.998464e+000
5.965457163370285e-004	5.000000e+000	0.000000e+000	4.999621e+000
6.065457163370285e-004	5.000000e+000	0.000000e+000	4.999924e+000
6.165457163370286e-004	5.000000e+000	0.000000e+000	4.999985e+000
6.265457163370286e-004	5.000000e+000	0.000000e+000	4.999997e+000
6.365457163370286e-004	5.000000e+000	0.000000e+000	4.999999e+000
6.465457163370287e-004	5.000000e+000	0.000000e+000	5.000000e+000
6.565457163370287e-004	5.000000e+000	0.000000e+000	5.000000e+000
6.665457163370287e-004	5.000000e+000	0.000000e+000	5.000000e+000
6.765457163370287e-004	5.000000e+000	0.000000e+000	5.000000e+000
6.865457163370288e-004	5.000000e+000	0.000000e+000	5.000000e+000
6.965457163370288e-004	5.000000e+000	0.000000e+000	5.000000e+000
7.065457163370288e-004	5.000000e+000	0.000000e+000	5.000000e+000
7.165457163370288e-004	5.000000e+000	0.000000e+000	5.000000e+000
7.265457163370289e-004	5.000000e+000	0.000000e+000	5.000000e+000
7.365457163370289e-004	5.000000e+000	0.000000e+000	5.000000e+000
7.465457163370289e-004	5.000000e+000	0.000000e+000	5.000000e+000
7.565457163370289e-004	5.000000e+000	0.000000e+000	5.000000e+000
7.665457163370290e-004	5.000000e+000	0.000000e+000	5.000000e+000
7.765457163370290e-004	5.000000e+000	0.000000e+000	5.000000e+000
7.865457163370290e-004	5.000000e+000	0.000000e+000	5.000000e+000
7.965457163370290e-004	5.000000e+000	0.000000e+000	5.000000e+000
8.065457163370291e-004	5.000000e+000	0.000000e+000	5.000000e+000
8.165457163370291e-004	5.000000e+000	0.000000e+000	5.000000e+000
8.265457163370291e-004	5.000000e+000	0.000000e+000	5.000000e+000
8.365457163370291e-004	5.000000e+000	0.000000e+000	5.000000e+000
8.465457163370292e-004	5.000000e+000	0.000000e+000	5.000000e+000
8.565457163370292e-004	5.000000e+000	0.000000e+000	5.000000e+000
8.665457163370292e-004	5.000000e+000	0.000000e+000	5.000000e+000
8.765457163370293e-004	5.000000e+000	0.000000e+000	5.000000e+000
8.865457163370293e-004	5.000000e+000	0.000000e+000	5.000000e+000
8.965457163370293e-004	5.000000e+000	0.000000e+000	5.000000e+000
9.065457163370293e-004	5.000000e+000	0.000000e+000	5.000000e+000
9.165457163370294e-004	5.000000e+000	0.000000e+000	5.000000e+000
9.265457163370294e-004	5.000000e+000	0.000000e+000	5.000000e+000
9.365457163370294e-004	5.000000e+000	0.000000e+000	5.000000e+000
9.465457163370294e-004	5.000000e+000	0.000000e+000	5.000000e+000
9.565457163370295e-004	5.000000e+000	0.000000e+000	5.000000e+000
9.665457163370295e-004	5.000000e+000	0.000000e+000	5.000000e+000
9.765457163370295e-004	5.000000e+000	0.000000e+000	5.000000e+000
9.865457163370295e-004	5.000000e+000	0.000000e+000	5.000000e+000
9.900000000000000e-004	5.000000e+000	0.000000e+000	5.000000e+000
9.952685386075272e-004	5.000000e+000	0.000000e+000	5.000000e+000
9.970971920887093e-004	5.000000e+000	0.000000e+000	5.000000e+000
1.000000000000000e-003	5.000000e+000	0.000000e+000	5.000000e+000
1.000017121158233e-003	5.000000e+000	8.560579e-003	5.000000e+000
1.000051363474700e-003	5.000000e+000	2.568174e-002	5.000000e+000
1.000110945680726e-003	5.000000e+000	5.547284e-002	5.000000e+000
1.000172434012156e-003	5.000000e+000	8.621701e-002	5.000000e+000
1.000295410675017e-003	5.000000e+000	1.477053e-001	5.000000e+000
1.000541364000740e-003	5.000000e+000	2.706820e-001	5.000000e+000
1.000827925687467e-003	5.000000e+000	4.139628e-001	5.000000e+000
1.001021749515515e-003	5.000000e+000	5.108747e-001	5.000000e+000
1.001144833002282e-003	5.000000e+000	5.724165e-001	5.000000e+000
1.001267685544186e-003	5.000000e+000	6.338428e-001	5.000000e+000
1.001288929893100e-003	5.000000e+000	6.444650e-001	5.000000e+000
1.001313337735997e-003	5.000000e+000	6.566688e-001	5.000000e+000
1.001468817655494e-003	5.000000e+000	7.344088e-001	5.000000e+000
1.001624297574992e-003	5.000000e+000	8.121488e-001	5.000000e+000
1.001779777494490e-003	5.000000e+000	8.898888e-001	5.000000e+000
1.001935257413987e-003	5.000000e+000	9.676287e-001	5.000000e+000
1.002090737333485e-003	5.000000e+000	1.045369e+000	5.000000e+000
1.002246217252983e-003	5.000000e+000	1.123109e+000	5.000000e+000
1.002401697172480e-003	5.000000e+000	1.200849e+000	5.000000e+000
1.002846869514014e-003	5.000000e+000	1.423435e+000	4.999998e+000
1.003676893709592e-003	5.000000e+000	1.838447e+000	4.993988e+000
1.004929935216152e-003	5.000000e+000	2.464967e+000	4.943072e+000
1.006183762351392e-003	5.000000e+000	3.091881e+000	4.761241e+000
1.007946472435660e-003	5.000000e+000	3.973236e+000	4.282362e+000
1.008153302549521e-003	5.000000e+000	4.076651e+000	4.198154e+000
1.008566962777242e-003	5.000000e+000	4.283482e+000	3.977585e+000
1.009172679544557e-003	5.000000e+000	4.586340e+000	3.596488e+000
1.010000000000000e-003	5.000000e+000	5.000000e+000	3.006596e+000
1.010082732045544e-003	5.000000e+000	5.000000e+000	2.940773e+000
1.010248196136633e-003	5.000000e+000	5.000000e+000	2.811410e+000
1.010579124318810e-003	5.000000e+000	5.000000e+000	2.561234e+000
1.010902295685923e-003	5.000000e+000	5.000000e+000	2.332440e+000
1.011548638420150e-003	5.000000e+000	5.000000e+000	1.933041e+000
1.012841323888603e-003	5.000000e+000	5.000000e+000	1.289126e+000
1.014111594462631e-003	5.000000e+000	5.000000e+000	8.250340e-001
1.015319429508688e-003	5.000000e+000	5.000000e+000	5.268676e-001
1.016359595437125e-003	5.000000e+000	5.000000e+000	3.548897e-001
1.017375030680134e-003	5.000000e+000	5.000000e+000	2.423285e-001
1.018488788219027e-003	5.000000e+000	5.000000e+000	1.587042e-001
1.019523992724865e-003	5.000000e+000	5.000000e+000	1.063660e-001
1.020573976193287e-003	5.000000e+000	5.000000e+000	7.091748e-002
1.021568512498044e-003	5.000000e+000	5.000000e+000	4.826024e-002
1.022592206948545e-003	5.000000e+000	5.000000e+000	3.251226e-002
1.023587707936561e-003	5.000000e+000	5.000000e+000	2.211619e-002
1.024604367308687e-003	5.000000e+000	5.000000e+000	1.492840e-002
1.025599696937528e-003	5.000000e+000	5.000000e+000	1.015214e-002
1.026609916273950e-003	5.000000e+000	5.000000e+000	6.867563e-003
1.027605734812691e-003	5.000000e+000	5.000000e+000	4.669361e-003
1.028612662767172e-003	5.000000e+000	5.000000e+000	3.162215e-003
1.029609559803007e-003	5.000000e+000	5.000000e+000	2.149128e-003
1.030614419003629e-003	5.000000e+000	5.000000e+000	1.456471e-003
1.031612204073235e-003	5.000000e+000	5.000000e+000	9.895287e-004
1.032615714522475e-003	5.000000e+000	5.000000e+000	6.709208e-004
1.033614238855643e-003	5.000000e+000	5.000000e+000	4.557020e-004
1.034616863365720e-003	5.000000e+000	5.000000e+000	3.090708e-004
1.035615957607935e-003	5.000000e+000	5.000000e+000	2.098835e-004
1.036617978554957e-003	5.000000e+000	5.000000e+000	1.423794e-004
1.037617498878014e-003	5.000000e+000	5.000000e+000	9.667213e-005
1.038619102659454e-003	5.000000e+000	5.000000e+000	6.558948e-005
1.039618938310755e-003	5.000000e+000	5.000000e+000	4.452862e-005
1.040620248000723e-003	5.000000e+000	5.000000e+000	3.021465e-005
1.041620317850399e-003	5.000000e+000	5.000000e+000	2.051098e-005
1.042621413433982e-003	5.000000e+000	5.000000e+000	1.391868e-005
1.043621664000606e-003	5.000000e+000	5.000000e+000	9.447986e-006
1.044622591874872e-003	5.000000e+000	5.000000e+000	6.411768e-006
1.045622998136555e-003	5.000000e+000	5.000000e+000	4.352063e-006
1.046623771083821e-003	5.000000e+000	5.000000e+000	2.953657e-006
1.047624345364578e-003	5.000000e+000	5.000000e+000	2.004712e-006
1.048624929833688e-003	5.000000e+000	5.000000e+000	1.360665e-006
1.049625747179167e-003	5.000000e+000	5.000000e+000	9.234365e-007
1.050626027373379e-003	5.000000e+000	5.000000e+000	6.268513e-007
1.051627285567721e-003	5.000000e+000	5.000000e+000	4.253585e-007
1.052626980179687e-003	5.000000e+000	5.000000e+000	2.888202e-007
1.053629134217040e-003	5.000000e+000	5.000000e+000	1.960136e-007
1.054642622398763e-003	5.000000e+000	5.000000e+000	1.328094e-007
1.055746060676332e-003	5.000000e+000	5.000000e+000	8.758083e-008
1.057082790481289e-003	5.000000e+000	5.000000e+000	5.313257e-008
1.058638260740393e-003	5.000000e+000	5.000000e+000	2.979609e-008
1.063134460587324e-003	5.000000e+000	5.000000e+000	5.831931e-009
1.066678944916591e-003	5.000000e+000	5.000000e+000	1.724700e-009
1.072068804580113e-003	5.000000e+000	5.000000e+000	3.089956e-010
1.081724561304052e-003	5.000000e+000	5.000000e+000	5.399321e-011
1.091724561304052e-003	5.000000e+000	5.000000e+000	5.601213e-011
1.101724561304052e-003	5.000000e+000	5.000000e+000	5.545615e-011
1.111724561304052e-003	5.000000e+000	5.000000e+000	5.563550e-011
1.121724561304052e-003	5.000000e+000	5.000000e+000	5.557949e-011
1.131724561304052e-003	5.000000e+000	5.000000e+000	5.559704e-011
1.141724561304052e-003	5.000000e+000	5.000000e+000	5.559154e-011
1.151724561304052e-003	5.000000e+000	5.000000e+000	5.559326e-011
1.161724561304052e-003	5.000000e+000	5.000000e+000	5.559272e-011
1.171724561304052e-003	5.000000e+000	5.000000e+000	5.559289e-011
1.181724561304052e-003	5.000000e+000	5.000000e+000	5.559284e-011
1.191724561304052e-003	5.000000e+000	5.000000e+000	5.559286e-011
1.201724561304052e-003	5.000000e+000	5.000000e+000	5.559286e-011
1.211724561304052e-003	5.000000e+000	5.000000e+000	5.559286e-011
1.221724561304052e-003	5.000000e+000	5.000000e+000	5.559286e-011
1.231724561304052e-003	5.000000e+000	5.000000e+000	5.559286e-011
1.241724561304052e-003	5.000000e+000	5.000000e+000	5.559286e-011
1.251724561304052e-003	5.000000e+000	5.000000e+000	5.559286e-011
1.261724561304052e-003	5.000000e+000	5.000000e+000	5.559286e-011
1.271724561304052e-003	5.000000e+000	5.000000e+000	5.559286e-011
1.281724561304052e-003	5.000000e+000	5.000000e+000	5.559286e-011
1.291724561304053e-003	5.000000e+000	5.000000e+000	5.559286e-011
1.301724561304053e-003	5.000000e+000	5.000000e+000	5.559286e-011
1.311724561304053e-003	5.000000e+000	5.000000e+000	5.559286e-011
1.321724561304053e-003	5.000000e+000	5.000000e+000	5.559287e-011
1.331724561304053e-003	5.000000e+000	5.000000e+000	5.559287e-011
1.341724561304053e-003	5.000000e+000	5.000000e+000	5.559287e-011
1.351724561304053e-003	5.000000e+000	5.000000e+000	5.559287e-011
1.361724561304053e-003	5.000000e+000	5.000000e+000	5.559287e-011
1.371724561304053e-003	5.000000e+000	5.000000e+000	5.559287e-011
1.381724561304053e-003	5.000000e+000	5.000000e+000	5.559287e-011
1.391724561304053e-003	5.000000e+000	5.000000e+000	5.559287e-011
1.401724561304053e-003	5.000000e+000	5.000000e+000	5.559287e-011
