v6	V(n002)	V(n004)	V(n008)
0.000000000000000e+000	5.000000e+000	3.174680e+000	0.000000e+000
1.000000000000000e-002	5.000000e+000	3.175340e+000	1.000000e-002
2.000000000000000e-002	5.000000e+000	3.175340e+000	2.000000e-002
3.000000000000000e-002	5.000000e+000	3.175670e+000	3.000000e-002
4.000000000000000e-002	5.000000e+000	3.172094e+000	4.000000e-002
5.000000000000000e-002	5.000000e+000	3.172259e+000	5.000000e-002
6.000000000000001e-002	5.000000e+000	3.174212e+000	6.000000e-002
7.000000000000001e-002	5.000000e+000	3.172094e+000	7.000000e-002
8.000000000000000e-002	5.000000e+000	3.172988e+000	8.000000e-002
9.000000000000000e-002	5.000000e+000	3.174941e+000	9.000000e-002
9.999999999999999e-002	5.000000e+000	3.172094e+000	1.000000e-001
1.100000000000000e-001	5.000000e+000	3.172623e+000	1.100000e-001
1.200000000000000e-001	5.000000e+000	3.174577e+000	1.200000e-001
1.300000000000000e-001	5.000000e+000	3.172094e+000	1.300000e-001
1.400000000000000e-001	5.000000e+000	3.172806e+000	1.400000e-001
1.500000000000000e-001	5.000000e+000	3.174759e+000	1.500000e-001
1.600000000000000e-001	5.000000e+000	3.172094e+000	1.600000e-001
1.700000000000000e-001	5.000000e+000	3.172714e+000	1.700000e-001
1.800000000000000e-001	5.000000e+000	3.174668e+000	1.800000e-001
1.900000000000000e-001	5.000000e+000	3.172094e+000	1.900000e-001
2.000000000000000e-001	5.000000e+000	3.172760e+000	2.000000e-001
2.100000000000001e-001	5.000000e+000	3.174713e+000	2.100000e-001
2.200000000000001e-001	5.000000e+000	3.172094e+000	2.200000e-001
2.300000000000001e-001	5.000000e+000	3.172737e+000	2.300000e-001
2.400000000000001e-001	5.000000e+000	3.174690e+000	2.400000e-001
2.500000000000001e-001	5.000000e+000	3.172094e+000	2.500000e-001
2.600000000000001e-001	5.000000e+000	3.172749e+000	2.600000e-001
2.700000000000001e-001	5.000000e+000	3.174702e+000	2.700000e-001
2.800000000000001e-001	5.000000e+000	3.172094e+000	2.800000e-001
2.900000000000001e-001	5.000000e+000	3.172743e+000	2.900000e-001
3.000000000000001e-001	5.000000e+000	3.174696e+000	3.000000e-001
3.100000000000001e-001	5.000000e+000	3.172094e+000	3.100000e-001
3.200000000000001e-001	5.000000e+000	3.172746e+000	3.200000e-001
3.300000000000001e-001	5.000000e+000	3.174699e+000	3.300000e-001
3.400000000000001e-001	5.000000e+000	3.172094e+000	3.400000e-001
3.500000000000001e-001	5.000000e+000	3.172744e+000	3.500000e-001
3.600000000000002e-001	5.000000e+000	3.174697e+000	3.600000e-001
3.700000000000002e-001	5.000000e+000	3.172094e+000	3.700000e-001
3.800000000000002e-001	5.000000e+000	3.172745e+000	3.800000e-001
3.900000000000002e-001	5.000000e+000	3.174698e+000	3.900000e-001
4.000000000000002e-001	5.000000e+000	3.172094e+000	4.000000e-001
4.100000000000002e-001	5.000000e+000	3.172745e+000	4.100000e-001
4.200000000000002e-001	5.000000e+000	3.174698e+000	4.200000e-001
4.300000000000002e-001	5.000000e+000	3.172094e+000	4.300000e-001
4.400000000000002e-001	5.000000e+000	3.172745e+000	4.400000e-001
4.500000000000002e-001	5.000000e+000	3.174698e+000	4.500000e-001
4.600000000000002e-001	5.000000e+000	3.172094e+000	4.600000e-001
4.700000000000003e-001	5.000000e+000	3.172745e+000	4.700000e-001
4.800000000000003e-001	5.000000e+000	3.174698e+000	4.800000e-001
4.900000000000003e-001	5.000000e+000	3.172094e+000	4.900000e-001
5.000000000000002e-001	5.000000e+000	3.172745e+000	5.000000e-001
5.100000000000002e-001	5.000000e+000	3.174698e+000	5.100000e-001
5.200000000000002e-001	5.000000e+000	3.172094e+000	5.200000e-001
5.300000000000003e-001	5.000000e+000	3.172745e+000	5.300000e-001
5.400000000000003e-001	5.000000e+000	3.174698e+000	5.400000e-001
5.500000000000003e-001	5.000000e+000	3.172094e+000	5.500000e-001
5.600000000000003e-001	5.000000e+000	3.172745e+000	5.600000e-001
5.700000000000003e-001	5.000000e+000	3.174698e+000	5.700000e-001
5.800000000000003e-001	5.000000e+000	3.172094e+000	5.800000e-001
5.900000000000003e-001	5.000000e+000	3.172745e+000	5.900000e-001
6.000000000000003e-001	5.000000e+000	3.174698e+000	6.000000e-001
6.100000000000003e-001	5.000000e+000	3.172094e+000	6.100000e-001
6.200000000000003e-001	5.000000e+000	3.172745e+000	6.200000e-001
6.300000000000003e-001	5.000000e+000	3.174698e+000	6.300000e-001
6.400000000000004e-001	5.000000e+000	3.172094e+000	6.400000e-001
6.500000000000004e-001	5.000000e+000	3.172745e+000	6.500000e-001
6.600000000000004e-001	5.000000e+000	3.174698e+000	6.600000e-001
6.700000000000004e-001	5.000000e+000	3.172094e+000	6.700000e-001
6.800000000000004e-001	5.000000e+000	3.172745e+000	6.800000e-001
6.900000000000004e-001	5.000000e+000	3.174698e+000	6.900000e-001
7.000000000000004e-001	5.000000e+000	3.172094e+000	7.000000e-001
7.100000000000004e-001	5.000000e+000	3.172745e+000	7.100000e-001
7.200000000000004e-001	5.000000e+000	3.174698e+000	7.200000e-001
7.300000000000004e-001	5.000000e+000	3.172094e+000	7.300000e-001
7.400000000000004e-001	5.000000e+000	3.172745e+000	7.400000e-001
7.500000000000004e-001	5.000000e+000	3.174698e+000	7.500000e-001
7.600000000000005e-001	5.000000e+000	3.172094e+000	7.600000e-001
7.700000000000005e-001	5.000000e+000	3.172745e+000	7.700000e-001
7.800000000000005e-001	5.000000e+000	3.174698e+000	7.800000e-001
7.900000000000005e-001	5.000000e+000	3.172094e+000	7.900000e-001
8.000000000000005e-001	5.000000e+000	3.172745e+000	8.000000e-001
8.100000000000005e-001	5.000000e+000	3.174698e+000	8.100000e-001
8.200000000000005e-001	5.000000e+000	3.172094e+000	8.200000e-001
8.300000000000005e-001	5.000000e+000	3.172745e+000	8.300000e-001
8.400000000000005e-001	5.000000e+000	3.174698e+000	8.400000e-001
8.500000000000005e-001	5.000000e+000	3.172094e+000	8.500000e-001
8.600000000000005e-001	5.000000e+000	3.172745e+000	8.600000e-001
8.700000000000006e-001	5.000000e+000	3.174698e+000	8.700000e-001
8.800000000000006e-001	5.000000e+000	3.172094e+000	8.800000e-001
8.900000000000006e-001	5.000000e+000	3.172745e+000	8.900000e-001
9.000000000000006e-001	5.000000e+000	3.174698e+000	9.000000e-001
9.100000000000006e-001	5.000000e+000	3.172094e+000	9.100000e-001
9.200000000000006e-001	5.000000e+000	3.172745e+000	9.200000e-001
9.300000000000006e-001	5.000000e+000	3.174698e+000	9.300000e-001
9.400000000000006e-001	5.000000e+000	3.172094e+000	9.400000e-001
9.500000000000006e-001	5.000000e+000	3.172745e+000	9.500000e-001
9.600000000000006e-001	5.000000e+000	3.174698e+000	9.600000e-001
9.700000000000006e-001	5.000000e+000	3.172094e+000	9.700000e-001
9.800000000000007e-001	5.000000e+000	3.172745e+000	9.800000e-001
9.900000000000007e-001	5.000000e+000	3.174698e+000	9.900000e-001
1.000000000000001e+000	5.000000e+000	3.172094e+000	1.000000e+000
1.010000000000001e+000	5.000000e+000	3.172745e+000	1.010000e+000
1.020000000000001e+000	5.000000e+000	3.174698e+000	1.020000e+000
1.030000000000001e+000	5.000000e+000	3.172094e+000	1.030000e+000
1.040000000000001e+000	5.000000e+000	3.172745e+000	1.040000e+000
1.050000000000001e+000	5.000000e+000	3.174698e+000	1.050000e+000
1.060000000000001e+000	5.000000e+000	3.172094e+000	1.060000e+000
1.070000000000001e+000	5.000000e+000	3.172745e+000	1.070000e+000
1.080000000000001e+000	5.000000e+000	3.174698e+000	1.080000e+000
1.090000000000001e+000	5.000000e+000	3.172094e+000	1.090000e+000
1.100000000000001e+000	5.000000e+000	3.172745e+000	1.100000e+000
1.110000000000001e+000	5.000000e+000	3.174698e+000	1.110000e+000
1.120000000000001e+000	5.000000e+000	3.172094e+000	1.120000e+000
1.130000000000001e+000	5.000000e+000	3.172745e+000	1.130000e+000
1.140000000000001e+000	5.000000e+000	3.174698e+000	1.140000e+000
1.150000000000001e+000	5.000000e+000	3.172094e+000	1.150000e+000
1.160000000000001e+000	5.000000e+000	3.172745e+000	1.160000e+000
1.170000000000001e+000	5.000000e+000	3.174698e+000	1.170000e+000
1.180000000000001e+000	5.000000e+000	3.172094e+000	1.180000e+000
1.190000000000001e+000	5.000000e+000	3.172745e+000	1.190000e+000
1.200000000000001e+000	5.000000e+000	3.174698e+000	1.200000e+000
1.210000000000001e+000	5.000000e+000	3.172094e+000	1.210000e+000
1.220000000000001e+000	5.000000e+000	3.172745e+000	1.220000e+000
1.230000000000001e+000	5.000000e+000	3.174698e+000	1.230000e+000
1.240000000000001e+000	5.000000e+000	3.172094e+000	1.240000e+000
1.250000000000001e+000	5.000000e+000	3.172745e+000	1.250000e+000
1.260000000000001e+000	5.000000e+000	3.174698e+000	1.260000e+000
1.270000000000001e+000	5.000000e+000	3.172094e+000	1.270000e+000
1.280000000000001e+000	5.000000e+000	3.172745e+000	1.280000e+000
1.290000000000001e+000	5.000000e+000	3.174698e+000	1.290000e+000
1.300000000000001e+000	5.000000e+000	3.172094e+000	1.300000e+000
1.310000000000001e+000	5.000000e+000	3.172745e+000	1.310000e+000
1.320000000000001e+000	5.000000e+000	3.174698e+000	1.320000e+000
1.330000000000001e+000	5.000000e+000	3.172094e+000	1.330000e+000
1.340000000000001e+000	5.000000e+000	3.172745e+000	1.340000e+000
1.350000000000001e+000	5.000000e+000	3.174698e+000	1.350000e+000
1.360000000000001e+000	5.000000e+000	3.172094e+000	1.360000e+000
1.370000000000001e+000	5.000000e+000	3.172745e+000	1.370000e+000
1.380000000000001e+000	5.000000e+000	3.174698e+000	1.380000e+000
1.390000000000001e+000	5.000000e+000	3.172094e+000	1.390000e+000
1.400000000000001e+000	5.000000e+000	3.172745e+000	1.400000e+000
1.410000000000001e+000	5.000000e+000	3.174698e+000	1.410000e+000
1.420000000000001e+000	5.000000e+000	3.172094e+000	1.420000e+000
1.430000000000001e+000	5.000000e+000	3.172745e+000	1.430000e+000
1.440000000000001e+000	5.000000e+000	3.174698e+000	1.440000e+000
1.450000000000001e+000	5.000000e+000	3.172094e+000	1.450000e+000
1.460000000000001e+000	5.000000e+000	3.172745e+000	1.460000e+000
1.470000000000001e+000	5.000000e+000	3.174698e+000	1.470000e+000
1.480000000000001e+000	5.000000e+000	3.172094e+000	1.480000e+000
1.490000000000001e+000	5.000000e+000	3.172745e+000	1.490000e+000
1.500000000000001e+000	5.000000e+000	3.174698e+000	1.500000e+000
1.510000000000001e+000	5.000000e+000	3.172094e+000	1.510000e+000
1.520000000000001e+000	5.000000e+000	3.172745e+000	1.520000e+000
1.530000000000001e+000	5.000000e+000	3.174698e+000	1.530000e+000
1.540000000000001e+000	5.000000e+000	3.172094e+000	1.540000e+000
1.550000000000001e+000	5.000000e+000	3.172745e+000	1.550000e+000
1.560000000000001e+000	5.000000e+000	3.174698e+000	1.560000e+000
1.570000000000001e+000	5.000000e+000	3.172094e+000	1.570000e+000
1.580000000000001e+000	5.000000e+000	3.172745e+000	1.580000e+000
1.590000000000001e+000	5.000000e+000	3.174698e+000	1.590000e+000
1.600000000000001e+000	5.000000e+000	3.172094e+000	1.600000e+000
1.610000000000001e+000	5.000000e+000	3.172745e+000	1.610000e+000
1.620000000000001e+000	5.000000e+000	3.174698e+000	1.620000e+000
1.630000000000001e+000	5.000000e+000	3.172094e+000	1.630000e+000
1.640000000000001e+000	5.000000e+000	3.172745e+000	1.640000e+000
1.650000000000001e+000	5.000000e+000	3.174698e+000	1.650000e+000
1.660000000000001e+000	5.000000e+000	3.172094e+000	1.660000e+000
1.670000000000001e+000	5.000000e+000	3.172745e+000	1.670000e+000
1.680000000000001e+000	5.000000e+000	3.174698e+000	1.680000e+000
1.690000000000001e+000	5.000000e+000	3.172094e+000	1.690000e+000
1.700000000000001e+000	5.000000e+000	3.172745e+000	1.700000e+000
1.710000000000001e+000	5.000000e+000	3.174698e+000	1.710000e+000
1.720000000000001e+000	5.000000e+000	3.172094e+000	1.720000e+000
1.730000000000001e+000	5.000000e+000	3.172745e+000	1.730000e+000
1.740000000000001e+000	5.000000e+000	3.174698e+000	1.740000e+000
1.750000000000001e+000	5.000000e+000	3.172094e+000	1.750000e+000
1.760000000000001e+000	5.000000e+000	3.172745e+000	1.760000e+000
1.770000000000001e+000	5.000000e+000	3.174698e+000	1.770000e+000
1.780000000000001e+000	5.000000e+000	3.172094e+000	1.780000e+000
1.790000000000001e+000	5.000000e+000	3.172745e+000	1.790000e+000
1.800000000000001e+000	5.000000e+000	3.174698e+000	1.800000e+000
1.810000000000001e+000	5.000000e+000	3.172094e+000	1.810000e+000
1.820000000000001e+000	5.000000e+000	3.172745e+000	1.820000e+000
1.830000000000001e+000	5.000000e+000	3.167790e+000	1.830000e+000
1.840000000000001e+000	5.000000e+000	3.159698e+000	1.840000e+000
1.850000000000001e+000	5.000000e+000	3.149948e+000	1.850000e+000
1.860000000000001e+000	5.000000e+000	3.140000e+000	1.860000e+000
1.870000000000001e+000	5.000000e+000	3.130000e+000	1.870000e+000
1.880000000000001e+000	5.000000e+000	3.120000e+000	1.880000e+000
1.890000000000002e+000	5.000000e+000	3.110000e+000	1.890000e+000
1.900000000000002e+000	5.000000e+000	3.100000e+000	1.900000e+000
1.910000000000002e+000	5.000000e+000	3.090000e+000	1.910000e+000
1.920000000000002e+000	5.000000e+000	3.080000e+000	1.920000e+000
1.930000000000002e+000	5.000000e+000	3.070000e+000	1.930000e+000
1.940000000000002e+000	5.000000e+000	3.060000e+000	1.940000e+000
1.950000000000002e+000	5.000000e+000	3.050000e+000	1.950000e+000
1.960000000000002e+000	5.000000e+000	3.040000e+000	1.960000e+000
1.970000000000002e+000	5.000000e+000	3.030000e+000	1.970000e+000
1.980000000000002e+000	5.000000e+000	3.020000e+000	1.980000e+000
1.990000000000002e+000	5.000000e+000	3.010000e+000	1.990000e+000
2.000000000000001e+000	5.000000e+000	3.000000e+000	2.000000e+000
2.010000000000001e+000	5.000000e+000	2.990000e+000	2.010000e+000
2.020000000000001e+000	5.000000e+000	2.980000e+000	2.020000e+000
2.030000000000001e+000	5.000000e+000	2.970000e+000	2.030000e+000
2.040000000000001e+000	5.000000e+000	2.960000e+000	2.040000e+000
2.050000000000000e+000	5.000000e+000	2.950000e+000	2.050000e+000
2.060000000000000e+000	5.000000e+000	2.940000e+000	2.060000e+000
2.070000000000000e+000	5.000000e+000	2.930000e+000	2.070000e+000
2.080000000000000e+000	5.000000e+000	2.920000e+000	2.080000e+000
2.089999999999999e+000	5.000000e+000	2.910000e+000	2.090000e+000
2.099999999999999e+000	5.000000e+000	2.900000e+000	2.100000e+000
2.109999999999999e+000	5.000000e+000	2.890000e+000	2.110000e+000
2.119999999999999e+000	5.000000e+000	2.880000e+000	2.120000e+000
2.129999999999999e+000	5.000000e+000	2.870000e+000	2.130000e+000
2.139999999999998e+000	5.000000e+000	2.860000e+000	2.140000e+000
2.149999999999998e+000	5.000000e+000	2.850000e+000	2.150000e+000
2.159999999999998e+000	5.000000e+000	2.840000e+000	2.160000e+000
2.169999999999998e+000	5.000000e+000	2.830000e+000	2.170000e+000
2.179999999999998e+000	5.000000e+000	2.820000e+000	2.180000e+000
2.189999999999997e+000	5.000000e+000	2.810000e+000	2.190000e+000
2.199999999999997e+000	5.000000e+000	2.800000e+000	2.200000e+000
2.209999999999997e+000	5.000000e+000	2.790000e+000	2.210000e+000
2.219999999999997e+000	5.000000e+000	2.780000e+000	2.220000e+000
2.229999999999996e+000	5.000000e+000	2.770000e+000	2.230000e+000
2.239999999999996e+000	5.000000e+000	2.760000e+000	2.240000e+000
2.249999999999996e+000	5.000000e+000	2.750000e+000	2.250000e+000
2.259999999999996e+000	5.000000e+000	2.740000e+000	2.260000e+000
2.269999999999996e+000	5.000000e+000	2.730000e+000	2.270000e+000
2.279999999999995e+000	5.000000e+000	2.720000e+000	2.280000e+000
2.289999999999995e+000	5.000000e+000	2.710000e+000	2.290000e+000
2.299999999999995e+000	5.000000e+000	2.700000e+000	2.300000e+000
2.309999999999995e+000	5.000000e+000	2.690000e+000	2.310000e+000
2.319999999999995e+000	5.000000e+000	2.680000e+000	2.320000e+000
2.329999999999994e+000	5.000000e+000	2.670000e+000	2.330000e+000
2.339999999999994e+000	5.000000e+000	2.660000e+000	2.340000e+000
2.349999999999994e+000	5.000000e+000	2.650000e+000	2.350000e+000
2.359999999999994e+000	5.000000e+000	2.640000e+000	2.360000e+000
2.369999999999993e+000	5.000000e+000	2.630000e+000	2.370000e+000
2.379999999999993e+000	5.000000e+000	2.620000e+000	2.380000e+000
2.389999999999993e+000	5.000000e+000	2.610000e+000	2.390000e+000
2.399999999999993e+000	5.000000e+000	2.600000e+000	2.400000e+000
2.409999999999993e+000	5.000000e+000	2.590000e+000	2.410000e+000
2.419999999999992e+000	5.000000e+000	2.580000e+000	2.420000e+000
2.429999999999992e+000	5.000000e+000	2.570000e+000	2.430000e+000
2.439999999999992e+000	5.000000e+000	2.560000e+000	2.440000e+000
2.449999999999992e+000	5.000000e+000	2.550000e+000	2.450000e+000
2.459999999999992e+000	5.000000e+000	2.540000e+000	2.460000e+000
2.469999999999991e+000	5.000000e+000	2.530000e+000	2.470000e+000
2.479999999999991e+000	5.000000e+000	2.520000e+000	2.480000e+000
2.489999999999991e+000	5.000000e+000	2.510000e+000	2.490000e+000
2.499999999999991e+000	5.000000e+000	2.500000e+000	2.500000e+000
2.509999999999991e+000	5.000000e+000	2.490000e+000	2.510000e+000
2.519999999999990e+000	5.000000e+000	2.480000e+000	2.520000e+000
2.529999999999990e+000	5.000000e+000	2.470000e+000	2.530000e+000
2.539999999999990e+000	5.000000e+000	2.460000e+000	2.540000e+000
2.549999999999990e+000	5.000000e+000	2.450000e+000	2.550000e+000
2.559999999999989e+000	5.000000e+000	2.440000e+000	2.560000e+000
2.569999999999989e+000	5.000000e+000	2.430000e+000	2.570000e+000
2.579999999999989e+000	5.000000e+000	2.420000e+000	2.580000e+000
2.589999999999989e+000	5.000000e+000	2.410000e+000	2.590000e+000
2.599999999999989e+000	5.000000e+000	2.400000e+000	2.600000e+000
2.609999999999988e+000	5.000000e+000	2.390000e+000	2.610000e+000
2.619999999999988e+000	5.000000e+000	2.380000e+000	2.620000e+000
2.629999999999988e+000	5.000000e+000	2.370000e+000	2.630000e+000
2.639999999999988e+000	5.000000e+000	2.360000e+000	2.640000e+000
2.649999999999988e+000	5.000000e+000	2.350000e+000	2.650000e+000
2.659999999999987e+000	5.000000e+000	2.340000e+000	2.660000e+000
2.669999999999987e+000	5.000000e+000	2.330000e+000	2.670000e+000
2.679999999999987e+000	5.000000e+000	2.320000e+000	2.680000e+000
2.689999999999987e+000	5.000000e+000	2.310000e+000	2.690000e+000
2.699999999999986e+000	5.000000e+000	2.300000e+000	2.700000e+000
2.709999999999986e+000	5.000000e+000	2.290000e+000	2.710000e+000
2.719999999999986e+000	5.000000e+000	2.280000e+000	2.720000e+000
2.729999999999986e+000	5.000000e+000	2.270000e+000	2.730000e+000
2.739999999999986e+000	5.000000e+000	2.260000e+000	2.740000e+000
2.749999999999985e+000	5.000000e+000	2.250000e+000	2.750000e+000
2.759999999999985e+000	5.000000e+000	2.240000e+000	2.760000e+000
2.769999999999985e+000	5.000000e+000	2.230000e+000	2.770000e+000
2.779999999999985e+000	5.000000e+000	2.220000e+000	2.780000e+000
2.789999999999985e+000	5.000000e+000	2.210000e+000	2.790000e+000
2.799999999999984e+000	5.000000e+000	2.200000e+000	2.800000e+000
2.809999999999984e+000	5.000000e+000	2.190000e+000	2.810000e+000
2.819999999999984e+000	5.000000e+000	2.180000e+000	2.820000e+000
2.829999999999984e+000	5.000000e+000	2.170000e+000	2.830000e+000
2.839999999999983e+000	5.000000e+000	2.160000e+000	2.840000e+000
2.849999999999983e+000	5.000000e+000	2.150000e+000	2.850000e+000
2.859999999999983e+000	5.000000e+000	2.140000e+000	2.860000e+000
2.869999999999983e+000	5.000000e+000	2.130000e+000	2.870000e+000
2.879999999999983e+000	5.000000e+000	2.120000e+000	2.880000e+000
2.889999999999982e+000	5.000000e+000	2.110000e+000	2.890000e+000
2.899999999999982e+000	5.000000e+000	2.100000e+000	2.900000e+000
2.909999999999982e+000	5.000000e+000	2.090000e+000	2.910000e+000
2.919999999999982e+000	5.000000e+000	2.080000e+000	2.920000e+000
2.929999999999982e+000	5.000000e+000	2.070000e+000	2.930000e+000
2.939999999999981e+000	5.000000e+000	2.060000e+000	2.940000e+000
2.949999999999981e+000	5.000000e+000	2.050000e+000	2.950000e+000
2.959999999999981e+000	5.000000e+000	2.040000e+000	2.960000e+000
2.969999999999981e+000	5.000000e+000	2.030000e+000	2.970000e+000
2.979999999999980e+000	5.000000e+000	2.020000e+000	2.980000e+000
2.989999999999980e+000	5.000000e+000	2.010000e+000	2.990000e+000
2.999999999999980e+000	5.000000e+000	2.000000e+000	3.000000e+000
3.009999999999980e+000	5.000000e+000	1.990000e+000	3.010000e+000
3.019999999999980e+000	5.000000e+000	1.980000e+000	3.020000e+000
3.029999999999979e+000	5.000000e+000	1.970000e+000	3.030000e+000
3.039999999999979e+000	5.000000e+000	1.960000e+000	3.040000e+000
3.049999999999979e+000	5.000000e+000	1.950000e+000	3.050000e+000
3.059999999999979e+000	5.000000e+000	1.940000e+000	3.060000e+000
